
T0798 000:292 SEGGER J-Link V4.96d Log File (0000ms, 0276ms total)
T0798 000:292 DLL Compiled: Jan 29 2015 11:45:37 (0000ms, 0276ms total)
T0798 000:292 Logging started @ 2015-04-11 17:54 (0000ms, 0276ms total)
T0798 000:292 JLINK_SetWarnOutHandler(...) (0000ms, 0276ms total)
T0798 000:292 JLINK_OpenEx(...)
Firmware: J-Link ARM-OB STM32 compiled Aug 22 2012 19:52:04
Hardware: V7.00
S/N: 20090928
Feature(s): RDI,FlashDL,FlashBP,JFlash,GDBFull  returns O.K. (0272ms, 0548ms total)
T0798 000:564 JLINK_SetErrorOutHandler(...) (0000ms, 0548ms total)
T0798 000:564 JLINK_ExecCommand("ProjectFile = "F:\Temperature Controller\STM32 Project\JLinkSettings.ini"", ...)Device "UNSPECIFIED" selected.  returns 0x00 (0002ms, 0550ms total)
T0798 000:566 JLINK_ExecCommand("Device = STM32F407VGTx", ...)Device "UNSPECIFIED" selected.  returns 0x00 (0000ms, 0550ms total)
T0798 000:567 JLINK_ExecCommand("DisableConnectionTimeout", ...)  returns 0x01 (0000ms, 0551ms total)
T0798 000:567 JLINK_GetHardwareVersion()  returns 0x11170 (0000ms, 0551ms total)
T0798 000:567 JLINK_GetDLLVersion()  returns 49604 (0000ms, 0551ms total)
T0798 000:567 JLINK_GetFirmwareString(...) (0000ms, 0551ms total)
T0798 000:567 JLINK_GetDLLVersion()  returns 49604 (0000ms, 0551ms total)
T0798 000:567 JLINK_GetCompileDateTime() (0000ms, 0551ms total)
T0798 000:567 JLINK_GetFirmwareString(...) (0000ms, 0551ms total)
T0798 000:567 JLINK_GetHardwareVersion()  returns 0x11170 (0000ms, 0551ms total)
T0798 000:568 JLINK_TIF_Select(JLINKARM_TIF_SWD)  returns 0x00 (0004ms, 0555ms total)
T0798 000:572 JLINK_SetSpeed(20000) (0002ms, 0557ms total)
T0798 000:574 JLINK_GetId() >0x108 TIF>Found SWD-DP with ID 0x2BA01477 >0x0D TIF> >0x21 TIF> >0x0D TIF> >0x28 TIF> >0x0D TIF> >0x28 TIF> >0x0D TIF> >0x21 TIF> >0x0D TIF> >0x28 TIF> >0x0D TIF> >0x21 TIF> >0x0D TIF> >0x21 TIF> >0x0D TIF> >0x21 TIF> >0x0D TIF> >0x21 TIF> >0x0D TIF> >0x28 TIF> >0x0D TIF> >0x28 TIF> >0x0D TIF> >0x21 TIF> >0x0D TIF> >0x28 TIF> >0x0D TIF> >0x28 TIF> >0x0D TIF> >0x28 TIF> >0x0D TIF> >0x21 TIF> >0x0D TIF> >0x21 TIF> >0x0D TIF> >0x28 TIF> >0x0D TIF> >0x21 TIF> >0x0D TIF>
 >0x21 TIF>Found Cortex-M4 r0p1, Little endian. -- CPU_WriteMem(4 bytes @ 0xE0002000) -- CPU_ReadMem(4 bytes @ 0xE000EDF0) -- CPU_ReadMem(4 bytes @ 0xE0002000)FPUnit: 6 code (BP) slots and 2 literal slots -- CPU_ReadMem(4 bytes @ 0xE000EDFC) -- CPU_ReadMem(4 bytes @ 0xE0001000) -- CPU_WriteMem(4 bytes @ 0xE0001000) -- CPU_ReadMem(4 bytes @ 0xE000ED88) -- CPU_WriteMem(4 bytes @ 0xE000ED88) -- CPU_ReadMem(4 bytes @ 0xE000ED88) -- CPU_WriteMem(4 bytes @ 0xE000ED88) -- CPU_ReadMem(4 bytes @ 0xE00FF010)
TPIU fitted. -- CPU_ReadMem(4 bytes @ 0xE00FF014)ETM fitted. -- CPU_ReadMem(4 bytes @ 0xE00FF018) >0x0D TIF> >0x21 TIF>  returns 0x2BA01477 (0062ms, 0619ms total)
T0798 000:636 JLINK_GetDLLVersion()  returns 49604 (0000ms, 0619ms total)
T0798 000:636 JLINK_CORE_GetFound()  returns 0xE0000FF (0000ms, 0619ms total)
T0798 000:636 JLINK_GetDebugInfo(0x100) -- Value=0xE00FF003  returns 0x00 (0000ms, 0619ms total)
T0798 000:636 JLINK_ReadMem (0xE00FF000, 0x0020 Bytes, ...) -- CPU is running -- CPU_ReadMem(32 bytes @ 0xE00FF000) - Data: 03 F0 F0 FF 03 20 F0 FF 03 30 F0 FF 03 10 F0 FF ...  returns 0x00 (0002ms, 0621ms total)
T0798 000:638 JLINK_ReadMem (0xE000EFF0, 0x0010 Bytes, ...) -- CPU is running -- CPU_ReadMem(16 bytes @ 0xE000EFF0) - Data: 0D 00 00 00 E0 00 00 00 05 00 00 00 B1 00 00 00  returns 0x00 (0001ms, 0622ms total)
T0798 000:639 JLINK_ReadMem (0xE000EFD0, 0x0020 Bytes, ...) -- CPU is running -- CPU_ReadMem(32 bytes @ 0xE000EFD0) - Data: 04 00 00 00 00 00 00 00 00 00 00 00 00 00 00 00 ...  returns 0x00 (0001ms, 0623ms total)
T0798 000:640 JLINK_ReadMem (0xE0001FF0, 0x0010 Bytes, ...) -- CPU is running -- CPU_ReadMem(16 bytes @ 0xE0001FF0) - Data: 0D 00 00 00 E0 00 00 00 05 00 00 00 B1 00 00 00  returns 0x00 (0001ms, 0624ms total)
T0798 000:641 JLINK_ReadMem (0xE0001FD0, 0x0020 Bytes, ...) -- CPU is running -- CPU_ReadMem(32 bytes @ 0xE0001FD0) - Data: 04 00 00 00 00 00 00 00 00 00 00 00 00 00 00 00 ...  returns 0x00 (0001ms, 0625ms total)
T0798 000:642 JLINK_ReadMem (0xE0002FF0, 0x0010 Bytes, ...) -- CPU is running -- CPU_ReadMem(16 bytes @ 0xE0002FF0) - Data: 0D 00 00 00 E0 00 00 00 05 00 00 00 B1 00 00 00  returns 0x00 (0001ms, 0626ms total)
T0798 000:643 JLINK_ReadMem (0xE0002FD0, 0x0020 Bytes, ...) -- CPU is running -- CPU_ReadMem(32 bytes @ 0xE0002FD0) - Data: 04 00 00 00 00 00 00 00 00 00 00 00 00 00 00 00 ...  returns 0x00 (0001ms, 0627ms total)
T0798 000:644 JLINK_ReadMem (0xE0000FF0, 0x0010 Bytes, ...) -- CPU is running -- CPU_ReadMem(16 bytes @ 0xE0000FF0) - Data: 0D 00 00 00 E0 00 00 00 05 00 00 00 B1 00 00 00  returns 0x00 (0001ms, 0628ms total)
T0798 000:645 JLINK_ReadMem (0xE0000FD0, 0x0020 Bytes, ...) -- CPU is running -- CPU_ReadMem(32 bytes @ 0xE0000FD0) - Data: 04 00 00 00 00 00 00 00 00 00 00 00 00 00 00 00 ...  returns 0x00 (0001ms, 0629ms total)
T0798 000:646 JLINK_ReadMem (0xE0040FF0, 0x0010 Bytes, ...) -- CPU is running -- CPU_ReadMem(16 bytes @ 0xE0040FF0) - Data: 0D 00 00 00 90 00 00 00 05 00 00 00 B1 00 00 00  returns 0x00 (0001ms, 0630ms total)
T0798 000:647 JLINK_ReadMem (0xE0040FD0, 0x0020 Bytes, ...) -- CPU is running -- CPU_ReadMem(32 bytes @ 0xE0040FD0) - Data: 04 00 00 00 00 00 00 00 00 00 00 00 00 00 00 00 ...  returns 0x00 (0001ms, 0631ms total)
T0798 000:648 JLINK_ReadMem (0xE0041FF0, 0x0010 Bytes, ...) -- CPU is running -- CPU_ReadMem(16 bytes @ 0xE0041FF0) - Data: 0D 00 00 00 90 00 00 00 05 00 00 00 B1 00 00 00  returns 0x00 (0001ms, 0632ms total)
T0798 000:649 JLINK_ReadMem (0xE0041FD0, 0x0020 Bytes, ...) -- CPU is running -- CPU_ReadMem(32 bytes @ 0xE0041FD0) - Data: 04 00 00 00 00 00 00 00 00 00 00 00 00 00 00 00 ...  returns 0x00 (0001ms, 0633ms total)
T0798 000:650 JLINK_ReadMemU32(0xE000EF40, 0x0001 Items, ...) -- CPU is running -- CPU_ReadMem(4 bytes @ 0xE000EF40) - Data: 21 00 11 10  returns 0x01 (0001ms, 0634ms total)
T0798 000:651 JLINK_ReadMemU32(0xE000EF44, 0x0001 Items, ...) -- CPU is running -- CPU_ReadMem(4 bytes @ 0xE000EF44) - Data: 11 00 00 11  returns 0x01 (0001ms, 0635ms total)
T0798 000:652 JLINK_ReadMemU32(0xE000ED00, 0x0001 Items, ...) -- CPU is running -- CPU_ReadMem(4 bytes @ 0xE000ED00) - Data: 41 C2 0F 41  returns 0x01 (0001ms, 0636ms total)
T0798 000:653 JLINK_SetResetType(JLINKARM_RESET_TYPE_NORMAL)  returns JLINKARM_RESET_TYPE_NORMAL (0000ms, 0636ms total)
T0798 000:653 JLINK_Reset() -- CPU is running -- CPU_WriteMem(4 bytes @ 0xE000EDF0) -- CPU is running -- CPU_WriteMem(4 bytes @ 0xE000EDFC) >0x35 TIF> -- CPU is running -- CPU_WriteMem(4 bytes @ 0xE000ED0C) -- CPU is running -- CPU_ReadMem(4 bytes @ 0xE000EDF0) -- CPU is running -- CPU_ReadMem(4 bytes @ 0xE000EDF0) -- CPU is running -- CPU_WriteMem(4 bytes @ 0xE000EDF0) -- CPU is running -- CPU_WriteMem(4 bytes @ 0xE000EDFC) -- CPU is running -- CPU_ReadMem(4 bytes @ 0xE000EDF0)
 -- CPU_WriteMem(4 bytes @ 0xE0002000) -- CPU_ReadMem(4 bytes @ 0xE000EDFC) -- CPU_ReadMem(4 bytes @ 0xE0001000) (0026ms, 0662ms total)
T0798 000:679 JLINK_ReadReg(R15 (PC))  returns 0x08005400 (0000ms, 0662ms total)
T0798 000:679 JLINK_ReadReg(XPSR)  returns 0x01000000 (0000ms, 0662ms total)
T0798 000:679 JLINK_Halt()  returns 0x00 (0000ms, 0662ms total)
T0798 000:679 JLINK_IsHalted()  returns TRUE (0000ms, 0662ms total)
T0798 000:679 JLINK_ReadMemU32(0xE000EDF0, 0x0001 Items, ...) -- CPU_ReadMem(4 bytes @ 0xE000EDF0) - Data: 03 00 03 00  returns 0x01 (0001ms, 0663ms total)
T0798 000:680 JLINK_WriteU32(0xE000EDF0, 0xA05F0003) -- CPU_WriteMem(4 bytes @ 0xE000EDF0)  returns 0x00 (0001ms, 0664ms total)
T0798 000:681 JLINK_WriteU32(0xE000EDFC, 0x01000000) -- CPU_WriteMem(4 bytes @ 0xE000EDFC)  returns 0x00 (0001ms, 0665ms total)
T0798 000:682 JLINK_GetHWStatus(...)  returns 0x00 (0001ms, 0666ms total)
T0798 000:683 JLINK_GetNumBPUnits(Type = 0xFFFFFF00)  returns 0x06 (0000ms, 0666ms total)
T0798 000:683 JLINK_GetNumBPUnits(Type = 0xF0)  returns 0x2000 (0000ms, 0666ms total)
T0798 000:683 JLINK_GetNumWPUnits()  returns 0x04 (0000ms, 0666ms total)
T0798 000:684 JLINK_GetSpeed()  returns 0xFA0 (0000ms, 0666ms total)
T0798 000:684 JLINK_ReadMemU32(0xE000E004, 0x0001 Items, ...) -- CPU_ReadMem(4 bytes @ 0xE000E004) - Data: 02 00 00 00  returns 0x01 (0002ms, 0668ms total)
T0798 000:686 JLINK_ReadMemU32(0xE000E004, 0x0001 Items, ...) -- CPU_ReadMem(4 bytes @ 0xE000E004) - Data: 02 00 00 00  returns 0x01 (0001ms, 0669ms total)
T0798 000:687 JLINK_WriteMem(0xE0001000, 0x001C Bytes, ...) - Data: 01 00 00 00 00 00 00 00 00 00 00 00 00 00 00 00 ... -- CPU_WriteMem(28 bytes @ 0xE0001000)  returns 0x1C (0004ms, 0673ms total)
T0798 000:691 JLINK_ReadMem (0xE0001000, 0x001C Bytes, ...) -- CPU_ReadMem(28 bytes @ 0xE0001000) - Data: 01 00 00 40 00 00 00 00 00 00 00 00 00 00 00 00 ...  returns 0x00 (0001ms, 0674ms total)
T0798 000:692 JLINK_ReadReg(R15 (PC))  returns 0x08005400 (0000ms, 0674ms total)
T0798 000:692 JLINK_ReadReg(XPSR)  returns 0x01000000 (0000ms, 0674ms total)
T0798 000:993 JLINK_SetResetType(JLINKARM_RESET_TYPE_NORMAL)  returns JLINKARM_RESET_TYPE_NORMAL (0000ms, 0674ms total)
T0798 000:993 JLINK_Reset() -- CPU_WriteMem(4 bytes @ 0xE000EDF0) -- CPU_WriteMem(4 bytes @ 0xE000EDFC) >0x35 TIF> -- CPU_WriteMem(4 bytes @ 0xE000ED0C) -- CPU_ReadMem(4 bytes @ 0xE000EDF0) -- CPU_ReadMem(4 bytes @ 0xE000EDF0) -- CPU_WriteMem(4 bytes @ 0xE000EDF0) -- CPU_WriteMem(4 bytes @ 0xE000EDFC) -- CPU is running -- CPU_ReadMem(4 bytes @ 0xE000EDF0) -- CPU_WriteMem(4 bytes @ 0xE0002000) -- CPU_ReadMem(4 bytes @ 0xE000EDFC) -- CPU_ReadMem(4 bytes @ 0xE0001000) (0026ms, 0700ms total)
T0798 001:019 JLINK_ReadReg(R15 (PC))  returns 0x08005400 (0001ms, 0701ms total)
T0798 001:020 JLINK_ReadReg(XPSR)  returns 0x01000000 (0000ms, 0701ms total)
T0798 001:180 JLINK_ReadMem (0x08005400, 0x003C Bytes, ...) -- CPU_ReadMem(60 bytes @ 0x08005400) - Data: 09 48 80 47 09 48 00 47 FE E7 FE E7 FE E7 FE E7 ...  returns 0x00 (0002ms, 0703ms total)
T0798 001:476 JLINK_ReadMem (0x40023C00, 0x0004 Bytes, ...) -- CPU_ReadMem(4 bytes @ 0x40023C00) - Data: 00 00 00 00  returns 0x00 (0002ms, 0705ms total)
T0798 001:478 JLINK_ReadMem (0x40023C0C, 0x0008 Bytes, ...) -- CPU_ReadMem(8 bytes @ 0x40023C0C) - Data: 00 00 00 00 00 00 00 80  returns 0x00 (0001ms, 0706ms total)
T0798 001:479 JLINK_ReadMem (0x40023C14, 0x0004 Bytes, ...) -- CPU_ReadMem(4 bytes @ 0x40023C14) - Data: ED AA FF 0F  returns 0x00 (0001ms, 0707ms total)
T0798 001:520 JLINK_ReadMem (0x40020800, 0x0014 Bytes, ...) -- CPU_ReadMem(20 bytes @ 0x40020800) - Data: 00 00 00 00 00 00 00 00 00 00 00 00 00 00 00 00 ...  returns 0x00 (0002ms, 0709ms total)
T0798 001:522 JLINK_ReadMem (0x40020814, 0x0004 Bytes, ...) -- CPU_ReadMem(4 bytes @ 0x40020814) - Data: 00 00 00 00  returns 0x00 (0001ms, 0710ms total)
T0798 001:523 JLINK_ReadMem (0x4002081C, 0x0008 Bytes, ...) -- CPU_ReadMem(8 bytes @ 0x4002081C) - Data: 00 00 00 00 00 00 00 00  returns 0x00 (0001ms, 0711ms total)
T0798 001:524 JLINK_ReadMem (0x40020824, 0x0004 Bytes, ...) -- CPU_ReadMem(4 bytes @ 0x40020824) - Data: 00 00 00 00  returns 0x00 (0001ms, 0712ms total)
T0798 001:546 JLINK_ReadMem (0x40000400, 0x0010 Bytes, ...) -- CPU_ReadMem(16 bytes @ 0x40000400) - Data: 00 00 00 00 00 00 00 00 00 00 00 00 00 00 00 00  returns 0x00 (0002ms, 0714ms total)
T0798 001:548 JLINK_ReadMem (0x40000410, 0x0004 Bytes, ...) -- CPU_ReadMem(4 bytes @ 0x40000410) - Data: 00 00 00 00  returns 0x00 (0001ms, 0715ms total)
T0798 001:549 JLINK_ReadMem (0x40000418, 0x0014 Bytes, ...) -- CPU_ReadMem(20 bytes @ 0x40000418) - Data: 00 00 00 00 00 00 00 00 00 00 00 00 00 00 00 00 ...  returns 0x00 (0001ms, 0716ms total)
T0798 001:550 JLINK_ReadMem (0x4000042C, 0x0004 Bytes, ...) -- CPU_ReadMem(4 bytes @ 0x4000042C) - Data: 00 00 00 00  returns 0x00 (0001ms, 0717ms total)
T0798 001:551 JLINK_ReadMem (0x40000434, 0x000C Bytes, ...) -- CPU_ReadMem(12 bytes @ 0x40000434) - Data: 00 00 00 00 00 00 00 00 00 00 00 00  returns 0x00 (0001ms, 0718ms total)
T0798 001:552 JLINK_ReadMem (0x40000440, 0x0004 Bytes, ...) -- CPU_ReadMem(4 bytes @ 0x40000440) - Data: 00 00 00 00  returns 0x00 (0001ms, 0719ms total)
T0798 001:553 JLINK_ReadMem (0x40000448, 0x0004 Bytes, ...) -- CPU_ReadMem(4 bytes @ 0x40000448) - Data: 00 00 00 00  returns 0x00 (0001ms, 0720ms total)
T0798 001:554 JLINK_ReadMem (0x4000044C, 0x0004 Bytes, ...) -- CPU_ReadMem(4 bytes @ 0x4000044C) - Data: 00 00 00 00  returns 0x00 (0001ms, 0721ms total)
T0798 001:992 JLINK_ReadMem (0x00000000, 0x008A Bytes, ...) -- CPU_ReadMem(138 bytes @ 0x00000000) - Data: 78 08 00 20 01 54 00 08 09 54 00 08 0B 54 00 08 ...  returns 0x00 (0003ms, 0724ms total)
T0798 002:582 JLINK_ReadMem (0x20000028, 0x0008 Bytes, ...) -- CPU_ReadMem(8 bytes @ 0x20000028) - Data: 01 D0 01 20 70 47 49 1E  returns 0x00 (0003ms, 0727ms total)
T0798 002:591 JLINK_ReadMem (0x20000030, 0x0008 Bytes, ...) -- CPU_ReadMem(8 bytes @ 0x20000030) - Data: F7 D2 00 20 70 47 19 43  returns 0x00 (0002ms, 0729ms total)
T0798 002:596 JLINK_ReadMem (0x20000070, 0x0008 Bytes, ...) -- CPU_ReadMem(8 bytes @ 0x20000070) - Data: 3E 48 3D 49 01 60 06 21  returns 0x00 (0001ms, 0730ms total)
T0798 002:600 JLINK_ReadMem (0x20000078, 0x0008 Bytes, ...) -- CPU_ReadMem(8 bytes @ 0x20000078) - Data: 41 60 3D 49 81 60 00 20  returns 0x00 (0001ms, 0731ms total)
T0798 002:604 JLINK_ReadMem (0x20000080, 0x0008 Bytes, ...) -- CPU_ReadMem(8 bytes @ 0x20000080) - Data: 70 47 37 48 01 69 42 05  returns 0x00 (0002ms, 0733ms total)
T0798 002:610 JLINK_ReadMem (0x20000088, 0x0008 Bytes, ...) -- CPU_ReadMem(8 bytes @ 0x20000088) - Data: 11 43 01 61 00 20 70 47  returns 0x00 (0001ms, 0734ms total)
T0798 002:616 JLINK_ReadMem (0x200000A0, 0x0004 Bytes, ...) -- CPU_ReadMem(4 bytes @ 0x200000A0) - Data: 11 43 01 61  returns 0x00 (0001ms, 0735ms total)
T1520 002:645 JLINK_SetBPEx(Addr = 0x08000228, Type = 0xFFFFFFF2)  returns 0x00000001 (0000ms, 0735ms total)
T1520 002:645 JLINK_Go() -- CPU_WriteMem(4 bytes @ 0xE0002000) -- CPU_WriteMem(4 bytes @ 0xE0002008) -- CPU_WriteMem(4 bytes @ 0xE000200C) -- CPU_WriteMem(4 bytes @ 0xE0002010) -- CPU_WriteMem(4 bytes @ 0xE0002014) -- CPU_WriteMem(4 bytes @ 0xE0002018) -- CPU_WriteMem(4 bytes @ 0xE000201C) -- CPU_WriteMem(4 bytes @ 0xE0001004) (0011ms, 0746ms total)
T1520 002:756 JLINK_IsHalted()  returns TRUE (0006ms, 0752ms total)
T1520 002:762 JLINK_Halt()  returns 0x00 (0000ms, 0746ms total)
T1520 002:762 JLINK_IsHalted()  returns TRUE (0000ms, 0746ms total)
T1520 002:762 JLINK_IsHalted()  returns TRUE (0000ms, 0746ms total)
T1520 002:762 JLINK_IsHalted()  returns TRUE (0000ms, 0746ms total)
T1520 002:762 JLINK_ReadReg(R15 (PC))  returns 0x08000228 (0000ms, 0746ms total)
T1520 002:762 JLINK_ReadReg(XPSR)  returns 0x21000000 (0000ms, 0746ms total)
T1520 002:762 JLINK_ClrBPEx(BPHandle = 0x00000001)  returns 0x00 (0000ms, 0746ms total)
T1520 002:762 JLINK_ReadMemU32(0xE000ED30, 0x0001 Items, ...) -- CPU_ReadMem(4 bytes @ 0xE000ED30) - Data: 03 00 00 00  returns 0x01 (0002ms, 0748ms total)
T1520 002:764 JLINK_ReadMemU32(0xE0001028, 0x0001 Items, ...) -- CPU_ReadMem(4 bytes @ 0xE0001028) - Data: 00 00 00 00  returns 0x01 (0001ms, 0749ms total)
T1520 002:765 JLINK_ReadMemU32(0xE0001038, 0x0001 Items, ...) -- CPU_ReadMem(4 bytes @ 0xE0001038) - Data: 00 02 00 00  returns 0x01 (0001ms, 0750ms total)
T1520 002:766 JLINK_ReadMemU32(0xE0001048, 0x0001 Items, ...) -- CPU_ReadMem(4 bytes @ 0xE0001048) - Data: 00 00 00 00  returns 0x01 (0001ms, 0751ms total)
T1520 002:767 JLINK_ReadMemU32(0xE0001058, 0x0001 Items, ...) -- CPU_ReadMem(4 bytes @ 0xE0001058) - Data: 00 00 00 00  returns 0x01 (0001ms, 0752ms total)
T1520 002:768 JLINK_ReadReg(R0)  returns 0x20000278 (0000ms, 0752ms total)
T1520 002:768 JLINK_ReadReg(R1)  returns 0x20000478 (0000ms, 0752ms total)
T1520 002:768 JLINK_ReadReg(R2)  returns 0x20000478 (0000ms, 0752ms total)
T1520 002:768 JLINK_ReadReg(R3)  returns 0x20000478 (0000ms, 0752ms total)
T1520 002:768 JLINK_ReadReg(R4)  returns 0x00000000 (0000ms, 0752ms total)
T1520 002:768 JLINK_ReadReg(R5)  returns 0x20000218 (0001ms, 0753ms total)
T1520 002:769 JLINK_ReadReg(R6)  returns 0x00000000 (0000ms, 0753ms total)
T1520 002:769 JLINK_ReadReg(R7)  returns 0x00000000 (0000ms, 0753ms total)
T1520 002:769 JLINK_ReadReg(R8)  returns 0x00000000 (0000ms, 0753ms total)
T1520 002:769 JLINK_ReadReg(R9)  returns 0x00000000 (0000ms, 0753ms total)
T1520 002:769 JLINK_ReadReg(R10)  returns 0x080061F0 (0000ms, 0753ms total)
T1520 002:769 JLINK_ReadReg(R11)  returns 0x00000000 (0000ms, 0753ms total)
T1520 002:769 JLINK_ReadReg(R12)  returns 0x20000258 (0000ms, 0753ms total)
T1520 002:769 JLINK_ReadReg(R13 (SP))  returns 0x20000878 (0000ms, 0753ms total)
T1520 002:769 JLINK_ReadReg(R14)  returns 0x08000217 (0000ms, 0753ms total)
T1520 002:769 JLINK_ReadReg(R15 (PC))  returns 0x08000228 (0000ms, 0753ms total)
T1520 002:769 JLINK_ReadReg(XPSR)  returns 0x21000000 (0000ms, 0753ms total)
T1520 002:769 JLINK_ReadReg(MSP)  returns 0x20000878 (0000ms, 0753ms total)
T1520 002:769 JLINK_ReadReg(PSP)  returns 0x00000000 (0000ms, 0753ms total)
T1520 002:769 JLINK_ReadReg(CFBP)  returns 0x04000000 (0000ms, 0753ms total)
T1520 002:769 JLINK_ReadReg(FPSCR)  returns 0x03000000 (0007ms, 0760ms total)
T1520 002:776 JLINK_ReadReg(FPS0)  returns 0x00000000 (0000ms, 0760ms total)
T1520 002:776 JLINK_ReadReg(FPS1)  returns 0x00000000 (0000ms, 0760ms total)
T1520 002:776 JLINK_ReadReg(FPS2)  returns 0x00000000 (0000ms, 0760ms total)
T1520 002:776 JLINK_ReadReg(FPS3)  returns 0x00000000 (0000ms, 0760ms total)
T1520 002:776 JLINK_ReadReg(FPS4)  returns 0x00000000 (0000ms, 0760ms total)
T1520 002:776 JLINK_ReadReg(FPS5)  returns 0x00000000 (0000ms, 0760ms total)
T1520 002:776 JLINK_ReadReg(FPS6)  returns 0x00000000 (0000ms, 0760ms total)
T1520 002:776 JLINK_ReadReg(FPS7)  returns 0x00000000 (0000ms, 0760ms total)
T1520 002:776 JLINK_ReadReg(FPS8)  returns 0x00000000 (0000ms, 0760ms total)
T1520 002:776 JLINK_ReadReg(FPS9)  returns 0x00000000 (0000ms, 0760ms total)
T1520 002:776 JLINK_ReadReg(FPS10)  returns 0x00000000 (0000ms, 0760ms total)
T1520 002:777 JLINK_ReadReg(FPS11)  returns 0x00000000 (0000ms, 0761ms total)
T1520 002:777 JLINK_ReadReg(FPS12)  returns 0x00000000 (0000ms, 0761ms total)
T1520 002:777 JLINK_ReadReg(FPS13)  returns 0x00000000 (0000ms, 0761ms total)
T1520 002:777 JLINK_ReadReg(FPS14)  returns 0x00000000 (0000ms, 0761ms total)
T1520 002:777 JLINK_ReadReg(FPS15)  returns 0x00000000 (0000ms, 0761ms total)
T1520 002:777 JLINK_ReadReg(FPS16)  returns 0x00000000 (0000ms, 0761ms total)
T1520 002:777 JLINK_ReadReg(FPS17)  returns 0x00000000 (0000ms, 0761ms total)
T1520 002:777 JLINK_ReadReg(FPS18)  returns 0x00000000 (0000ms, 0761ms total)
T1520 002:777 JLINK_ReadReg(FPS19)  returns 0x00000000 (0000ms, 0761ms total)
T1520 002:777 JLINK_ReadReg(FPS20)  returns 0x00000000 (0000ms, 0761ms total)
T1520 002:777 JLINK_ReadReg(FPS21)  returns 0x00000000 (0000ms, 0761ms total)
T1520 002:777 JLINK_ReadReg(FPS22)  returns 0x00000000 (0000ms, 0761ms total)
T1520 002:777 JLINK_ReadReg(FPS23)  returns 0x00000000 (0000ms, 0761ms total)
T1520 002:777 JLINK_ReadReg(FPS24)  returns 0x00000000 (0000ms, 0761ms total)
T1520 002:777 JLINK_ReadReg(FPS25)  returns 0x00000000 (0000ms, 0761ms total)
T1520 002:777 JLINK_ReadReg(FPS26)  returns 0x00000000 (0000ms, 0761ms total)
T1520 002:777 JLINK_ReadReg(FPS27)  returns 0x00000000 (0000ms, 0761ms total)
T1520 002:777 JLINK_ReadReg(FPS28)  returns 0x00000000 (0000ms, 0761ms total)
T1520 002:778 JLINK_ReadReg(FPS29)  returns 0x00000000 (0000ms, 0762ms total)
T1520 002:778 JLINK_ReadReg(FPS30)  returns 0x00000000 (0000ms, 0762ms total)
T1520 002:778 JLINK_ReadReg(FPS31)  returns 0x00000000 (0000ms, 0762ms total)
T0798 002:779 JLINK_ReadMem (0x20000028, 0x0008 Bytes, ...) -- CPU_ReadMem(8 bytes @ 0x20000028) - Data: 00 00 00 00 00 00 00 00  returns 0x00 (0002ms, 0764ms total)
T0798 002:783 JLINK_ReadMem (0x20000030, 0x0008 Bytes, ...) -- CPU_ReadMem(8 bytes @ 0x20000030) - Data: 00 00 00 00 00 00 00 00  returns 0x00 (0002ms, 0766ms total)
T0798 002:785 JLINK_ReadMem (0x20000070, 0x0008 Bytes, ...) -- CPU_ReadMem(8 bytes @ 0x20000070) - Data: 00 00 00 00 00 00 00 00  returns 0x00 (0002ms, 0768ms total)
T0798 002:787 JLINK_ReadMem (0x20000078, 0x0008 Bytes, ...) -- CPU_ReadMem(8 bytes @ 0x20000078) - Data: 00 00 00 00 00 00 00 00  returns 0x00 (0002ms, 0770ms total)
T0798 002:789 JLINK_ReadMem (0x20000080, 0x0008 Bytes, ...) -- CPU_ReadMem(8 bytes @ 0x20000080) - Data: 00 00 00 00 00 00 00 00  returns 0x00 (0002ms, 0772ms total)
T0798 002:791 JLINK_ReadMem (0x20000088, 0x0008 Bytes, ...) -- CPU_ReadMem(8 bytes @ 0x20000088) - Data: 00 00 00 00 00 00 00 00  returns 0x00 (0002ms, 0774ms total)
T0798 002:799 JLINK_ReadMem (0x200000A0, 0x0004 Bytes, ...) -- CPU_ReadMem(4 bytes @ 0x200000A0) - Data: 00 00 00 00  returns 0x00 (0002ms, 0776ms total)
T0798 002:801 JLINK_ReadMem (0x40023C00, 0x0004 Bytes, ...) -- CPU_ReadMem(4 bytes @ 0x40023C00) - Data: 05 06 00 00  returns 0x00 (0002ms, 0778ms total)
T0798 002:803 JLINK_ReadMem (0x40023C0C, 0x0008 Bytes, ...) -- CPU_ReadMem(8 bytes @ 0x40023C0C) - Data: 00 00 00 00 00 00 00 80  returns 0x00 (0001ms, 0779ms total)
T0798 002:804 JLINK_ReadMem (0x40023C14, 0x0004 Bytes, ...) -- CPU_ReadMem(4 bytes @ 0x40023C14) - Data: ED AA FF 0F  returns 0x00 (0002ms, 0781ms total)
T0798 002:813 JLINK_ReadMem (0x40020800, 0x0014 Bytes, ...) -- CPU_ReadMem(20 bytes @ 0x40020800) - Data: 00 00 00 00 00 00 00 00 00 00 00 00 00 00 00 00 ...  returns 0x00 (0002ms, 0783ms total)
T0798 002:815 JLINK_ReadMem (0x40020814, 0x0004 Bytes, ...) -- CPU_ReadMem(4 bytes @ 0x40020814) - Data: 00 00 00 00  returns 0x00 (0001ms, 0784ms total)
T0798 002:816 JLINK_ReadMem (0x4002081C, 0x0008 Bytes, ...) -- CPU_ReadMem(8 bytes @ 0x4002081C) - Data: 00 00 00 00 00 00 00 00  returns 0x00 (0001ms, 0785ms total)
T0798 002:817 JLINK_ReadMem (0x40020824, 0x0004 Bytes, ...) -- CPU_ReadMem(4 bytes @ 0x40020824) - Data: 00 00 00 00  returns 0x00 (0001ms, 0786ms total)
T0798 002:819 JLINK_ReadMem (0x40000400, 0x0010 Bytes, ...) -- CPU_ReadMem(16 bytes @ 0x40000400) - Data: 00 00 00 00 00 00 00 00 00 00 00 00 00 00 00 00  returns 0x00 (0002ms, 0788ms total)
T0798 002:821 JLINK_ReadMem (0x40000410, 0x0004 Bytes, ...) -- CPU_ReadMem(4 bytes @ 0x40000410) - Data: 00 00 00 00  returns 0x00 (0001ms, 0789ms total)
T0798 002:822 JLINK_ReadMem (0x40000418, 0x0014 Bytes, ...) -- CPU_ReadMem(20 bytes @ 0x40000418) - Data: 00 00 00 00 00 00 00 00 00 00 00 00 00 00 00 00 ...  returns 0x00 (0001ms, 0790ms total)
T0798 002:823 JLINK_ReadMem (0x4000042C, 0x0004 Bytes, ...) -- CPU_ReadMem(4 bytes @ 0x4000042C) - Data: 00 00 00 00  returns 0x00 (0001ms, 0791ms total)
T0798 002:824 JLINK_ReadMem (0x40000434, 0x000C Bytes, ...) -- CPU_ReadMem(12 bytes @ 0x40000434) - Data: 00 00 00 00 00 00 00 00 00 00 00 00  returns 0x00 (0001ms, 0792ms total)
T0798 002:825 JLINK_ReadMem (0x40000440, 0x0004 Bytes, ...) -- CPU_ReadMem(4 bytes @ 0x40000440) - Data: 00 00 00 00  returns 0x00 (0001ms, 0793ms total)
T0798 002:826 JLINK_ReadMem (0x40000448, 0x0004 Bytes, ...) -- CPU_ReadMem(4 bytes @ 0x40000448) - Data: 00 00 00 00  returns 0x00 (0001ms, 0794ms total)
T0798 002:827 JLINK_ReadMem (0x4000044C, 0x0004 Bytes, ...) -- CPU_ReadMem(4 bytes @ 0x4000044C) - Data: 00 00 00 00  returns 0x00 (0001ms, 0795ms total)
T0798 002:832 JLINK_ReadMem (0x08000228, 0x003C Bytes, ...) -- CPU_ReadMem(128 bytes @ 0x08000200) -- Updating DA cache (128 bytes @ 0x08000200) -- Read from DA cache (60 bytes @ 0x08000228) - Data: 05 F0 A4 F9 1B 48 00 68 4F F4 7A 72 B0 FB F2 F1 ...  returns 0x00 (0003ms, 0798ms total)
T1520 005:727 JLINK_Go() -- CPU_WriteMem(4 bytes @ 0xE0002008) (0006ms, 0804ms total)
T1520 005:833 JLINK_IsHalted()  returns FALSE (0002ms, 0806ms total)
T1520 005:935 JLINK_IsHalted()  returns FALSE (0002ms, 0806ms total)
T1520 006:037 JLINK_IsHalted()  returns FALSE (0001ms, 0805ms total)
T1520 006:138 JLINK_IsHalted()  returns FALSE (0002ms, 0806ms total)
T1520 006:240 JLINK_ReadMemU32(0xE0001004, 0x0001 Items, ...) -- CPU is running -- CPU_ReadMem(4 bytes @ 0xE0001004) - Data: 50 34 17 05  returns 0x01 (0002ms, 0806ms total)
T0798 006:242 JLINK_ReadMem (0x20000028, 0x0008 Bytes, ...) -- CPU is running -- CPU_ReadMem(8 bytes @ 0x20000028) - Data: 00 00 00 00 00 40 40 40  returns 0x00 (0002ms, 0808ms total)
T0798 006:247 JLINK_ReadMem (0x20000030, 0x0008 Bytes, ...) -- CPU is running -- CPU_ReadMem(8 bytes @ 0x20000030) - Data: 00 00 00 00 00 C0 3E 40  returns 0x00 (0002ms, 0810ms total)
T0798 006:250 JLINK_ReadMem (0x20000070, 0x0008 Bytes, ...) -- CPU is running -- CPU_ReadMem(8 bytes @ 0x20000070) - Data: 00 00 00 00 00 50 56 40  returns 0x00 (0001ms, 0811ms total)
T0798 006:252 JLINK_ReadMem (0x20000078, 0x0008 Bytes, ...) -- CPU is running -- CPU_ReadMem(8 bytes @ 0x20000078) - Data: 00 00 00 00 00 00 00 00  returns 0x00 (0002ms, 0813ms total)
T0798 006:254 JLINK_ReadMem (0x20000080, 0x0008 Bytes, ...) -- CPU is running -- CPU_ReadMem(8 bytes @ 0x20000080) - Data: 00 00 00 00 00 00 00 00  returns 0x00 (0002ms, 0815ms total)
T0798 006:256 JLINK_ReadMem (0x20000088, 0x0008 Bytes, ...) -- CPU is running -- CPU_ReadMem(8 bytes @ 0x20000088) - Data: 00 00 00 00 00 50 56 40  returns 0x00 (0002ms, 0817ms total)
T0798 006:268 JLINK_ReadMem (0x200000A0, 0x0004 Bytes, ...) -- CPU is running -- CPU_ReadMem(4 bytes @ 0x200000A0) - Data: 59 00 00 00  returns 0x00 (0002ms, 0819ms total)
T0798 006:270 JLINK_ReadMem (0x40023C00, 0x0004 Bytes, ...) -- CPU is running -- CPU_ReadMem(4 bytes @ 0x40023C00) - Data: 05 06 00 00  returns 0x00 (0001ms, 0820ms total)
T0798 006:271 JLINK_ReadMem (0x40023C0C, 0x0008 Bytes, ...) -- CPU is running -- CPU_ReadMem(8 bytes @ 0x40023C0C) - Data: 00 00 00 00 00 00 00 80  returns 0x00 (0001ms, 0821ms total)
T0798 006:272 JLINK_ReadMem (0x40023C14, 0x0004 Bytes, ...) -- CPU is running -- CPU_ReadMem(4 bytes @ 0x40023C14) - Data: ED AA FF 0F  returns 0x00 (0001ms, 0822ms total)
T0798 006:273 JLINK_ReadMem (0x40020800, 0x0014 Bytes, ...) -- CPU is running -- CPU_ReadMem(20 bytes @ 0x40020800) - Data: 00 00 00 00 00 00 00 00 00 00 00 00 00 00 00 00 ...  returns 0x00 (0003ms, 0825ms total)
T0798 006:276 JLINK_ReadMem (0x40020814, 0x0004 Bytes, ...) -- CPU is running -- CPU_ReadMem(4 bytes @ 0x40020814) - Data: 00 00 00 00  returns 0x00 (0001ms, 0826ms total)
T0798 006:277 JLINK_ReadMem (0x4002081C, 0x0008 Bytes, ...) -- CPU is running -- CPU_ReadMem(8 bytes @ 0x4002081C) - Data: 00 00 00 00 00 00 00 00  returns 0x00 (0001ms, 0827ms total)
T0798 006:278 JLINK_ReadMem (0x40020824, 0x0004 Bytes, ...) -- CPU is running -- CPU_ReadMem(4 bytes @ 0x40020824) - Data: 00 00 00 00  returns 0x00 (0001ms, 0828ms total)
T0798 006:280 JLINK_ReadMem (0x40000400, 0x0010 Bytes, ...) -- CPU is running -- CPU_ReadMem(16 bytes @ 0x40000400) - Data: 00 00 00 00 00 00 00 00 00 00 00 00 00 00 00 00  returns 0x00 (0002ms, 0830ms total)
T0798 006:282 JLINK_ReadMem (0x40000410, 0x0004 Bytes, ...) -- CPU is running -- CPU_ReadMem(4 bytes @ 0x40000410) - Data: 00 00 00 00  returns 0x00 (0001ms, 0831ms total)
T0798 006:283 JLINK_ReadMem (0x40000418, 0x0014 Bytes, ...) -- CPU is running -- CPU_ReadMem(20 bytes @ 0x40000418) - Data: 00 00 00 00 00 00 00 00 00 00 00 00 00 00 00 00 ...  returns 0x00 (0001ms, 0832ms total)
T0798 006:284 JLINK_ReadMem (0x4000042C, 0x0004 Bytes, ...) -- CPU is running -- CPU_ReadMem(4 bytes @ 0x4000042C) - Data: 00 00 00 00  returns 0x00 (0001ms, 0833ms total)
T0798 006:285 JLINK_ReadMem (0x40000434, 0x000C Bytes, ...) -- CPU is running -- CPU_ReadMem(12 bytes @ 0x40000434) - Data: 00 00 00 00 00 00 00 00 00 00 00 00  returns 0x00 (0001ms, 0834ms total)
T0798 006:286 JLINK_ReadMem (0x40000440, 0x0004 Bytes, ...) -- CPU is running -- CPU_ReadMem(4 bytes @ 0x40000440) - Data: 00 00 00 00  returns 0x00 (0001ms, 0835ms total)
T0798 006:287 JLINK_ReadMem (0x40000448, 0x0004 Bytes, ...) -- CPU is running -- CPU_ReadMem(4 bytes @ 0x40000448) - Data: 00 00 00 00  returns 0x00 (0001ms, 0836ms total)
T0798 006:288 JLINK_ReadMem (0x4000044C, 0x0004 Bytes, ...) -- CPU is running -- CPU_ReadMem(4 bytes @ 0x4000044C) - Data: 00 00 00 00  returns 0x00 (0001ms, 0837ms total)
T1520 006:290 JLINK_IsHalted()  returns FALSE (0003ms, 0840ms total)
T1520 006:395 JLINK_IsHalted()  returns FALSE (0003ms, 0840ms total)
T1520 006:498 JLINK_IsHalted()  returns FALSE (0002ms, 0839ms total)
T1520 006:600 JLINK_IsHalted()  returns FALSE (0002ms, 0839ms total)
T1520 006:702 JLINK_IsHalted()  returns FALSE (0002ms, 0839ms total)
T1520 006:804 JLINK_ReadMemU32(0xE0001004, 0x0001 Items, ...) -- CPU is running -- CPU_ReadMem(4 bytes @ 0xE0001004) - Data: 2E C4 C0 0A  returns 0x01 (0003ms, 0840ms total)
T0798 006:807 JLINK_ReadMem (0x20000028, 0x0008 Bytes, ...) -- CPU is running -- CPU_ReadMem(8 bytes @ 0x20000028) - Data: 00 00 00 00 00 40 40 40  returns 0x00 (0001ms, 0841ms total)
T0798 006:810 JLINK_ReadMem (0x20000030, 0x0008 Bytes, ...) -- CPU is running -- CPU_ReadMem(8 bytes @ 0x20000030) - Data: 00 00 00 00 00 C0 3E 40  returns 0x00 (0002ms, 0843ms total)
T0798 006:812 JLINK_ReadMem (0x20000070, 0x0008 Bytes, ...) -- CPU is running -- CPU_ReadMem(8 bytes @ 0x20000070) - Data: 00 00 00 00 00 50 56 40  returns 0x00 (0002ms, 0845ms total)
T0798 006:814 JLINK_ReadMem (0x20000078, 0x0008 Bytes, ...) -- CPU is running -- CPU_ReadMem(8 bytes @ 0x20000078) - Data: 00 00 00 00 00 00 00 00  returns 0x00 (0002ms, 0847ms total)
T0798 006:816 JLINK_ReadMem (0x20000080, 0x0008 Bytes, ...) -- CPU is running -- CPU_ReadMem(8 bytes @ 0x20000080) - Data: 00 00 00 00 00 00 00 00  returns 0x00 (0001ms, 0848ms total)
T0798 006:817 JLINK_ReadMem (0x20000088, 0x0008 Bytes, ...) -- CPU is running -- CPU_ReadMem(8 bytes @ 0x20000088) - Data: 00 00 00 00 00 50 56 40  returns 0x00 (0001ms, 0849ms total)
T0798 006:823 JLINK_ReadMem (0x200000A0, 0x0004 Bytes, ...) -- CPU is running -- CPU_ReadMem(4 bytes @ 0x200000A0) - Data: 59 00 00 00  returns 0x00 (0003ms, 0852ms total)
T0798 006:826 JLINK_ReadMem (0x40023C00, 0x0004 Bytes, ...) -- CPU is running -- CPU_ReadMem(4 bytes @ 0x40023C00) - Data: 05 06 00 00  returns 0x00 (0001ms, 0853ms total)
T0798 006:827 JLINK_ReadMem (0x40023C0C, 0x0008 Bytes, ...) -- CPU is running -- CPU_ReadMem(8 bytes @ 0x40023C0C) - Data: 00 00 00 00 00 00 00 80  returns 0x00 (0001ms, 0854ms total)
T0798 006:828 JLINK_ReadMem (0x40023C14, 0x0004 Bytes, ...) -- CPU is running -- CPU_ReadMem(4 bytes @ 0x40023C14) - Data: ED AA FF 0F  returns 0x00 (0001ms, 0855ms total)
T0798 006:829 JLINK_ReadMem (0x40020800, 0x0014 Bytes, ...) -- CPU is running -- CPU_ReadMem(20 bytes @ 0x40020800) - Data: 00 00 00 00 00 00 00 00 00 00 00 00 00 00 00 00 ...  returns 0x00 (0002ms, 0857ms total)
T0798 006:831 JLINK_ReadMem (0x40020814, 0x0004 Bytes, ...) -- CPU is running -- CPU_ReadMem(4 bytes @ 0x40020814) - Data: 00 00 00 00  returns 0x00 (0001ms, 0858ms total)
T0798 006:832 JLINK_ReadMem (0x4002081C, 0x0008 Bytes, ...) -- CPU is running -- CPU_ReadMem(8 bytes @ 0x4002081C) - Data: 00 00 00 00 00 00 00 00  returns 0x00 (0001ms, 0859ms total)
T0798 006:833 JLINK_ReadMem (0x40020824, 0x0004 Bytes, ...) -- CPU is running -- CPU_ReadMem(4 bytes @ 0x40020824) - Data: 00 00 00 00  returns 0x00 (0001ms, 0860ms total)
T0798 006:836 JLINK_ReadMem (0x40000400, 0x0010 Bytes, ...) -- CPU is running -- CPU_ReadMem(16 bytes @ 0x40000400) - Data: 00 00 00 00 00 00 00 00 00 00 00 00 00 00 00 00  returns 0x00 (0002ms, 0862ms total)
T0798 006:838 JLINK_ReadMem (0x40000410, 0x0004 Bytes, ...) -- CPU is running -- CPU_ReadMem(4 bytes @ 0x40000410) - Data: 00 00 00 00  returns 0x00 (0001ms, 0863ms total)
T0798 006:839 JLINK_ReadMem (0x40000418, 0x0014 Bytes, ...) -- CPU is running -- CPU_ReadMem(20 bytes @ 0x40000418) - Data: 00 00 00 00 00 00 00 00 00 00 00 00 00 00 00 00 ...  returns 0x00 (0001ms, 0864ms total)
T0798 006:840 JLINK_ReadMem (0x4000042C, 0x0004 Bytes, ...) -- CPU is running -- CPU_ReadMem(4 bytes @ 0x4000042C) - Data: 00 00 00 00  returns 0x00 (0001ms, 0865ms total)
T0798 006:841 JLINK_ReadMem (0x40000434, 0x000C Bytes, ...) -- CPU is running -- CPU_ReadMem(12 bytes @ 0x40000434) - Data: 00 00 00 00 00 00 00 00 00 00 00 00  returns 0x00 (0001ms, 0866ms total)
T0798 006:842 JLINK_ReadMem (0x40000440, 0x0004 Bytes, ...) -- CPU is running -- CPU_ReadMem(4 bytes @ 0x40000440) - Data: 00 00 00 00  returns 0x00 (0001ms, 0867ms total)
T0798 006:843 JLINK_ReadMem (0x40000448, 0x0004 Bytes, ...) -- CPU is running -- CPU_ReadMem(4 bytes @ 0x40000448) - Data: 00 00 00 00  returns 0x00 (0001ms, 0868ms total)
T0798 006:844 JLINK_ReadMem (0x4000044C, 0x0004 Bytes, ...) -- CPU is running -- CPU_ReadMem(4 bytes @ 0x4000044C) - Data: 00 00 00 00  returns 0x00 (0001ms, 0869ms total)
T1520 006:846 JLINK_IsHalted()  returns FALSE (0002ms, 0871ms total)
T1520 006:948 JLINK_IsHalted()  returns FALSE (0002ms, 0871ms total)
T1520 007:050 JLINK_IsHalted()  returns FALSE (0002ms, 0871ms total)
T1520 007:152 JLINK_IsHalted()  returns FALSE (0002ms, 0871ms total)
T1520 007:254 JLINK_IsHalted()  returns FALSE (0002ms, 0871ms total)
T1520 007:356 JLINK_ReadMemU32(0xE0001004, 0x0001 Items, ...) -- CPU is running -- CPU_ReadMem(4 bytes @ 0xE0001004) - Data: 76 CA 43 10  returns 0x01 (0002ms, 0871ms total)
T0798 007:358 JLINK_ReadMem (0x20000028, 0x0008 Bytes, ...) -- CPU is running -- CPU_ReadMem(8 bytes @ 0x20000028) - Data: 00 00 00 00 00 40 40 40  returns 0x00 (0001ms, 0872ms total)
T0798 007:359 JLINK_ReadMem (0x20000030, 0x0008 Bytes, ...) -- CPU is running -- CPU_ReadMem(8 bytes @ 0x20000030) - Data: 00 00 00 00 00 C0 3E 40  returns 0x00 (0001ms, 0873ms total)
T0798 007:360 JLINK_ReadMem (0x20000070, 0x0008 Bytes, ...) -- CPU is running -- CPU_ReadMem(8 bytes @ 0x20000070) - Data: 00 00 00 00 00 50 56 40  returns 0x00 (0001ms, 0874ms total)
T0798 007:361 JLINK_ReadMem (0x20000078, 0x0008 Bytes, ...) -- CPU is running -- CPU_ReadMem(8 bytes @ 0x20000078) - Data: 00 00 00 00 00 00 00 00  returns 0x00 (0001ms, 0875ms total)
T0798 007:362 JLINK_ReadMem (0x20000080, 0x0008 Bytes, ...) -- CPU is running -- CPU_ReadMem(8 bytes @ 0x20000080) - Data: 00 00 00 00 00 00 00 00  returns 0x00 (0001ms, 0876ms total)
T0798 007:363 JLINK_ReadMem (0x20000088, 0x0008 Bytes, ...) -- CPU is running -- CPU_ReadMem(8 bytes @ 0x20000088) - Data: 00 00 00 00 00 50 56 40  returns 0x00 (0001ms, 0877ms total)
T0798 007:364 JLINK_ReadMem (0x200000A0, 0x0004 Bytes, ...) -- CPU is running -- CPU_ReadMem(4 bytes @ 0x200000A0) - Data: 59 00 00 00  returns 0x00 (0001ms, 0878ms total)
T0798 007:365 JLINK_ReadMem (0x40023C00, 0x0004 Bytes, ...) -- CPU is running -- CPU_ReadMem(4 bytes @ 0x40023C00) - Data: 05 06 00 00  returns 0x00 (0001ms, 0879ms total)
T0798 007:366 JLINK_ReadMem (0x40023C0C, 0x0008 Bytes, ...) -- CPU is running -- CPU_ReadMem(8 bytes @ 0x40023C0C) - Data: 00 00 00 00 00 00 00 80  returns 0x00 (0001ms, 0880ms total)
T0798 007:367 JLINK_ReadMem (0x40023C14, 0x0004 Bytes, ...) -- CPU is running -- CPU_ReadMem(4 bytes @ 0x40023C14) - Data: ED AA FF 0F  returns 0x00 (0001ms, 0881ms total)
T0798 007:368 JLINK_ReadMem (0x40020800, 0x0014 Bytes, ...) -- CPU is running -- CPU_ReadMem(20 bytes @ 0x40020800) - Data: 00 00 00 00 00 00 00 00 00 00 00 00 00 00 00 00 ...  returns 0x00 (0002ms, 0883ms total)
T0798 007:370 JLINK_ReadMem (0x40020814, 0x0004 Bytes, ...) -- CPU is running -- CPU_ReadMem(4 bytes @ 0x40020814) - Data: 00 00 00 00  returns 0x00 (0001ms, 0884ms total)
T0798 007:371 JLINK_ReadMem (0x4002081C, 0x0008 Bytes, ...) -- CPU is running -- CPU_ReadMem(8 bytes @ 0x4002081C) - Data: 00 00 00 00 00 00 00 00  returns 0x00 (0001ms, 0885ms total)
T0798 007:372 JLINK_ReadMem (0x40020824, 0x0004 Bytes, ...) -- CPU is running -- CPU_ReadMem(4 bytes @ 0x40020824) - Data: 00 00 00 00  returns 0x00 (0001ms, 0886ms total)
T0798 007:374 JLINK_ReadMem (0x40000400, 0x0010 Bytes, ...) -- CPU is running -- CPU_ReadMem(16 bytes @ 0x40000400) - Data: 00 00 00 00 00 00 00 00 00 00 00 00 00 00 00 00  returns 0x00 (0002ms, 0888ms total)
T0798 007:376 JLINK_ReadMem (0x40000410, 0x0004 Bytes, ...) -- CPU is running -- CPU_ReadMem(4 bytes @ 0x40000410) - Data: 00 00 00 00  returns 0x00 (0001ms, 0889ms total)
T0798 007:377 JLINK_ReadMem (0x40000418, 0x0014 Bytes, ...) -- CPU is running -- CPU_ReadMem(20 bytes @ 0x40000418) - Data: 00 00 00 00 00 00 00 00 00 00 00 00 00 00 00 00 ...  returns 0x00 (0001ms, 0890ms total)
T0798 007:378 JLINK_ReadMem (0x4000042C, 0x0004 Bytes, ...) -- CPU is running -- CPU_ReadMem(4 bytes @ 0x4000042C) - Data: 00 00 00 00  returns 0x00 (0001ms, 0891ms total)
T0798 007:379 JLINK_ReadMem (0x40000434, 0x000C Bytes, ...) -- CPU is running -- CPU_ReadMem(12 bytes @ 0x40000434) - Data: 00 00 00 00 00 00 00 00 00 00 00 00  returns 0x00 (0001ms, 0892ms total)
T0798 007:380 JLINK_ReadMem (0x40000440, 0x0004 Bytes, ...) -- CPU is running -- CPU_ReadMem(4 bytes @ 0x40000440) - Data: 00 00 00 00  returns 0x00 (0001ms, 0893ms total)
T0798 007:381 JLINK_ReadMem (0x40000448, 0x0004 Bytes, ...) -- CPU is running -- CPU_ReadMem(4 bytes @ 0x40000448) - Data: 00 00 00 00  returns 0x00 (0001ms, 0894ms total)
T0798 007:382 JLINK_ReadMem (0x4000044C, 0x0004 Bytes, ...) -- CPU is running -- CPU_ReadMem(4 bytes @ 0x4000044C) - Data: 00 00 00 00  returns 0x00 (0001ms, 0895ms total)
T1520 007:384 JLINK_IsHalted()  returns FALSE (0003ms, 0898ms total)
T1520 007:487 JLINK_IsHalted()  returns FALSE (0002ms, 0897ms total)
T1520 007:589 JLINK_IsHalted()  returns FALSE (0002ms, 0897ms total)
T1520 007:691 JLINK_IsHalted()  returns FALSE (0002ms, 0897ms total)
T1520 007:793 JLINK_IsHalted()  returns FALSE (0002ms, 0897ms total)
T1520 007:895 JLINK_ReadMemU32(0xE0001004, 0x0001 Items, ...) -- CPU is running -- CPU_ReadMem(4 bytes @ 0xE0001004) - Data: F7 9C AD 15  returns 0x01 (0003ms, 0898ms total)
T0798 007:898 JLINK_ReadMem (0x20000028, 0x0008 Bytes, ...) -- CPU is running -- CPU_ReadMem(8 bytes @ 0x20000028) - Data: 00 00 00 00 00 40 40 40  returns 0x00 (0001ms, 0899ms total)
T0798 007:899 JLINK_ReadMem (0x20000030, 0x0008 Bytes, ...) -- CPU is running -- CPU_ReadMem(8 bytes @ 0x20000030) - Data: 00 00 00 00 00 C0 3E 40  returns 0x00 (0001ms, 0900ms total)
T0798 007:900 JLINK_ReadMem (0x20000070, 0x0008 Bytes, ...) -- CPU is running -- CPU_ReadMem(8 bytes @ 0x20000070) - Data: 00 00 00 00 10 3C DA 40  returns 0x00 (0001ms, 0901ms total)
T0798 007:902 JLINK_ReadMem (0x20000078, 0x0008 Bytes, ...) -- CPU is running -- CPU_ReadMem(8 bytes @ 0x20000078) - Data: 00 00 B0 16 85 6B 15 40  returns 0x00 (0002ms, 0903ms total)
T0798 007:904 JLINK_ReadMem (0x20000080, 0x0008 Bytes, ...) -- CPU is running -- CPU_ReadMem(8 bytes @ 0x20000080) - Data: 00 00 00 00 00 00 00 00  returns 0x00 (0002ms, 0905ms total)
T0798 007:906 JLINK_ReadMem (0x20000088, 0x0008 Bytes, ...) -- CPU is running -- CPU_ReadMem(8 bytes @ 0x20000088) - Data: 00 6B 51 B8 66 3D DA 40  returns 0x00 (0001ms, 0906ms total)
T0798 007:912 JLINK_ReadMem (0x200000A0, 0x0004 Bytes, ...) -- CPU is running -- CPU_ReadMem(4 bytes @ 0x200000A0) - Data: 10 27 00 00  returns 0x00 (0003ms, 0909ms total)
T0798 007:915 JLINK_ReadMem (0x40023C00, 0x0004 Bytes, ...) -- CPU is running -- CPU_ReadMem(4 bytes @ 0x40023C00) - Data: 05 06 00 00  returns 0x00 (0001ms, 0910ms total)
T0798 007:916 JLINK_ReadMem (0x40023C0C, 0x0008 Bytes, ...) -- CPU is running -- CPU_ReadMem(8 bytes @ 0x40023C0C) - Data: 00 00 00 00 00 00 00 80  returns 0x00 (0001ms, 0911ms total)
T0798 007:917 JLINK_ReadMem (0x40023C14, 0x0004 Bytes, ...) -- CPU is running -- CPU_ReadMem(4 bytes @ 0x40023C14) - Data: ED AA FF 0F  returns 0x00 (0001ms, 0912ms total)
T0798 007:918 JLINK_ReadMem (0x40020800, 0x0014 Bytes, ...) -- CPU is running -- CPU_ReadMem(20 bytes @ 0x40020800) - Data: 00 00 00 00 00 00 00 00 00 00 00 00 00 00 00 00 ...  returns 0x00 (0003ms, 0915ms total)
T0798 007:921 JLINK_ReadMem (0x40020814, 0x0004 Bytes, ...) -- CPU is running -- CPU_ReadMem(4 bytes @ 0x40020814) - Data: 00 00 00 00  returns 0x00 (0001ms, 0916ms total)
T0798 007:922 JLINK_ReadMem (0x4002081C, 0x0008 Bytes, ...) -- CPU is running -- CPU_ReadMem(8 bytes @ 0x4002081C) - Data: 00 00 00 00 00 00 00 00  returns 0x00 (0001ms, 0917ms total)
T0798 007:923 JLINK_ReadMem (0x40020824, 0x0004 Bytes, ...) -- CPU is running -- CPU_ReadMem(4 bytes @ 0x40020824) - Data: 00 00 00 00  returns 0x00 (0001ms, 0918ms total)
T0798 007:925 JLINK_ReadMem (0x40000400, 0x0010 Bytes, ...) -- CPU is running -- CPU_ReadMem(16 bytes @ 0x40000400) - Data: 00 00 00 00 00 00 00 00 00 00 00 00 00 00 00 00  returns 0x00 (0003ms, 0921ms total)
T0798 007:928 JLINK_ReadMem (0x40000410, 0x0004 Bytes, ...) -- CPU is running -- CPU_ReadMem(4 bytes @ 0x40000410) - Data: 00 00 00 00  returns 0x00 (0001ms, 0922ms total)
T0798 007:929 JLINK_ReadMem (0x40000418, 0x0014 Bytes, ...) -- CPU is running -- CPU_ReadMem(20 bytes @ 0x40000418) - Data: 00 00 00 00 00 00 00 00 00 00 00 00 00 00 00 00 ...  returns 0x00 (0001ms, 0923ms total)
T0798 007:930 JLINK_ReadMem (0x4000042C, 0x0004 Bytes, ...) -- CPU is running -- CPU_ReadMem(4 bytes @ 0x4000042C) - Data: 00 00 00 00  returns 0x00 (0001ms, 0924ms total)
T0798 007:931 JLINK_ReadMem (0x40000434, 0x000C Bytes, ...) -- CPU is running -- CPU_ReadMem(12 bytes @ 0x40000434) - Data: 00 00 00 00 00 00 00 00 00 00 00 00  returns 0x00 (0001ms, 0925ms total)
T0798 007:932 JLINK_ReadMem (0x40000440, 0x0004 Bytes, ...) -- CPU is running -- CPU_ReadMem(4 bytes @ 0x40000440) - Data: 00 00 00 00  returns 0x00 (0001ms, 0926ms total)
T0798 007:933 JLINK_ReadMem (0x40000448, 0x0004 Bytes, ...) -- CPU is running -- CPU_ReadMem(4 bytes @ 0x40000448) - Data: 00 00 00 00  returns 0x00 (0001ms, 0927ms total)
T0798 007:934 JLINK_ReadMem (0x4000044C, 0x0004 Bytes, ...) -- CPU is running -- CPU_ReadMem(4 bytes @ 0x4000044C) - Data: 00 00 00 00  returns 0x00 (0001ms, 0928ms total)
T1520 007:936 JLINK_IsHalted()  returns FALSE (0003ms, 0931ms total)
T1520 008:039 JLINK_IsHalted()  returns FALSE (0002ms, 0930ms total)
T1520 008:141 JLINK_IsHalted()  returns FALSE (0002ms, 0930ms total)
T1520 008:243 JLINK_IsHalted()  returns FALSE (0002ms, 0930ms total)
T1520 008:345 JLINK_IsHalted()  returns FALSE (0002ms, 0930ms total)
T1520 008:447 JLINK_ReadMemU32(0xE0001004, 0x0001 Items, ...) -- CPU is running -- CPU_ReadMem(4 bytes @ 0xE0001004) - Data: FA 61 30 1B  returns 0x01 (0002ms, 0930ms total)
T0798 008:449 JLINK_ReadMem (0x20000028, 0x0008 Bytes, ...) -- CPU is running -- CPU_ReadMem(8 bytes @ 0x20000028) - Data: 00 00 00 00 00 40 40 40  returns 0x00 (0002ms, 0932ms total)
T0798 008:451 JLINK_ReadMem (0x20000030, 0x0008 Bytes, ...) -- CPU is running -- CPU_ReadMem(8 bytes @ 0x20000030) - Data: 00 00 00 00 00 C0 3E 40  returns 0x00 (0001ms, 0933ms total)
T0798 008:452 JLINK_ReadMem (0x20000070, 0x0008 Bytes, ...) -- CPU is running -- CPU_ReadMem(8 bytes @ 0x20000070) - Data: 00 00 00 00 10 3C DA 40  returns 0x00 (0001ms, 0934ms total)
T0798 008:454 JLINK_ReadMem (0x20000078, 0x0008 Bytes, ...) -- CPU is running -- CPU_ReadMem(8 bytes @ 0x20000078) - Data: 00 00 B0 16 85 6B 15 40  returns 0x00 (0002ms, 0936ms total)
T0798 008:456 JLINK_ReadMem (0x20000080, 0x0008 Bytes, ...) -- CPU is running -- CPU_ReadMem(8 bytes @ 0x20000080) - Data: 00 00 00 00 00 00 00 00  returns 0x00 (0002ms, 0938ms total)
T0798 008:458 JLINK_ReadMem (0x20000088, 0x0008 Bytes, ...) -- CPU is running -- CPU_ReadMem(8 bytes @ 0x20000088) - Data: 00 6B 51 B8 66 3D DA 40  returns 0x00 (0001ms, 0939ms total)
T0798 008:464 JLINK_ReadMem (0x200000A0, 0x0004 Bytes, ...) -- CPU is running -- CPU_ReadMem(4 bytes @ 0x200000A0) - Data: 10 27 00 00  returns 0x00 (0003ms, 0942ms total)
T0798 008:467 JLINK_ReadMem (0x40023C00, 0x0004 Bytes, ...) -- CPU is running -- CPU_ReadMem(4 bytes @ 0x40023C00) - Data: 05 06 00 00  returns 0x00 (0001ms, 0943ms total)
T0798 008:468 JLINK_ReadMem (0x40023C0C, 0x0008 Bytes, ...) -- CPU is running -- CPU_ReadMem(8 bytes @ 0x40023C0C) - Data: 00 00 00 00 00 00 00 80  returns 0x00 (0001ms, 0944ms total)
T0798 008:469 JLINK_ReadMem (0x40023C14, 0x0004 Bytes, ...) -- CPU is running -- CPU_ReadMem(4 bytes @ 0x40023C14) - Data: ED AA FF 0F  returns 0x00 (0001ms, 0945ms total)
T0798 008:470 JLINK_ReadMem (0x40020800, 0x0014 Bytes, ...) -- CPU is running -- CPU_ReadMem(20 bytes @ 0x40020800) - Data: 00 00 00 00 00 00 00 00 00 00 00 00 00 00 00 00 ...  returns 0x00 (0003ms, 0948ms total)
T0798 008:473 JLINK_ReadMem (0x40020814, 0x0004 Bytes, ...) -- CPU is running -- CPU_ReadMem(4 bytes @ 0x40020814) - Data: 00 00 00 00  returns 0x00 (0001ms, 0949ms total)
T0798 008:474 JLINK_ReadMem (0x4002081C, 0x0008 Bytes, ...) -- CPU is running -- CPU_ReadMem(8 bytes @ 0x4002081C) - Data: 00 00 00 00 00 00 00 00  returns 0x00 (0001ms, 0950ms total)
T0798 008:475 JLINK_ReadMem (0x40020824, 0x0004 Bytes, ...) -- CPU is running -- CPU_ReadMem(4 bytes @ 0x40020824) - Data: 00 00 00 00  returns 0x00 (0001ms, 0951ms total)
T0798 008:477 JLINK_ReadMem (0x40000400, 0x0010 Bytes, ...) -- CPU is running -- CPU_ReadMem(16 bytes @ 0x40000400) - Data: 00 00 00 00 00 00 00 00 00 00 00 00 00 00 00 00  returns 0x00 (0003ms, 0954ms total)
T0798 008:480 JLINK_ReadMem (0x40000410, 0x0004 Bytes, ...) -- CPU is running -- CPU_ReadMem(4 bytes @ 0x40000410) - Data: 00 00 00 00  returns 0x00 (0001ms, 0955ms total)
T0798 008:481 JLINK_ReadMem (0x40000418, 0x0014 Bytes, ...) -- CPU is running -- CPU_ReadMem(20 bytes @ 0x40000418) - Data: 00 00 00 00 00 00 00 00 00 00 00 00 00 00 00 00 ...  returns 0x00 (0001ms, 0956ms total)
T0798 008:482 JLINK_ReadMem (0x4000042C, 0x0004 Bytes, ...) -- CPU is running -- CPU_ReadMem(4 bytes @ 0x4000042C) - Data: 00 00 00 00  returns 0x00 (0001ms, 0957ms total)
T0798 008:483 JLINK_ReadMem (0x40000434, 0x000C Bytes, ...) -- CPU is running -- CPU_ReadMem(12 bytes @ 0x40000434) - Data: 00 00 00 00 00 00 00 00 00 00 00 00  returns 0x00 (0001ms, 0958ms total)
T0798 008:484 JLINK_ReadMem (0x40000440, 0x0004 Bytes, ...) -- CPU is running -- CPU_ReadMem(4 bytes @ 0x40000440) - Data: 00 00 00 00  returns 0x00 (0001ms, 0959ms total)
T0798 008:485 JLINK_ReadMem (0x40000448, 0x0004 Bytes, ...) -- CPU is running -- CPU_ReadMem(4 bytes @ 0x40000448) - Data: 00 00 00 00  returns 0x00 (0001ms, 0960ms total)
T0798 008:486 JLINK_ReadMem (0x4000044C, 0x0004 Bytes, ...) -- CPU is running -- CPU_ReadMem(4 bytes @ 0x4000044C) - Data: 00 00 00 00  returns 0x00 (0001ms, 0961ms total)
T1520 008:488 JLINK_IsHalted()  returns FALSE (0002ms, 0963ms total)
T1520 008:590 JLINK_IsHalted()  returns FALSE (0002ms, 0963ms total)
T1520 008:692 JLINK_IsHalted()  returns FALSE (0002ms, 0963ms total)
T1520 008:794 JLINK_IsHalted()  returns FALSE (0001ms, 0962ms total)
T1520 008:895 JLINK_IsHalted()  returns FALSE (0002ms, 0963ms total)
T1520 008:998 JLINK_ReadMemU32(0xE0001004, 0x0001 Items, ...) -- CPU is running -- CPU_ReadMem(4 bytes @ 0xE0001004) - Data: DF 53 BB 20  returns 0x01 (0004ms, 0965ms total)
T0798 009:002 JLINK_ReadMem (0x20000028, 0x0008 Bytes, ...) -- CPU is running -- CPU_ReadMem(8 bytes @ 0x20000028) - Data: 00 00 00 00 00 40 40 40  returns 0x00 (0001ms, 0966ms total)
T0798 009:003 JLINK_ReadMem (0x20000030, 0x0008 Bytes, ...) -- CPU is running -- CPU_ReadMem(8 bytes @ 0x20000030) - Data: 00 00 00 00 00 C0 3E 40  returns 0x00 (0001ms, 0967ms total)
T0798 009:004 JLINK_ReadMem (0x20000070, 0x0008 Bytes, ...) -- CPU is running -- CPU_ReadMem(8 bytes @ 0x20000070) - Data: 00 00 00 00 10 3C DA 40  returns 0x00 (0001ms, 0968ms total)
T0798 009:005 JLINK_ReadMem (0x20000078, 0x0008 Bytes, ...) -- CPU is running -- CPU_ReadMem(8 bytes @ 0x20000078) - Data: 00 00 B0 16 85 6B 15 40  returns 0x00 (0001ms, 0969ms total)
T0798 009:006 JLINK_ReadMem (0x20000080, 0x0008 Bytes, ...) -- CPU is running -- CPU_ReadMem(8 bytes @ 0x20000080) - Data: 00 00 00 00 00 00 00 00  returns 0x00 (0001ms, 0970ms total)
T0798 009:007 JLINK_ReadMem (0x20000088, 0x0008 Bytes, ...) -- CPU is running -- CPU_ReadMem(8 bytes @ 0x20000088) - Data: 00 6B 51 B8 66 3D DA 40  returns 0x00 (0001ms, 0971ms total)
T0798 009:008 JLINK_ReadMem (0x200000A0, 0x0004 Bytes, ...) -- CPU is running -- CPU_ReadMem(4 bytes @ 0x200000A0) - Data: 10 27 00 00  returns 0x00 (0001ms, 0972ms total)
T0798 009:009 JLINK_ReadMem (0x40023C00, 0x0004 Bytes, ...) -- CPU is running -- CPU_ReadMem(4 bytes @ 0x40023C00) - Data: 05 06 00 00  returns 0x00 (0001ms, 0973ms total)
T0798 009:010 JLINK_ReadMem (0x40023C0C, 0x0008 Bytes, ...) -- CPU is running -- CPU_ReadMem(8 bytes @ 0x40023C0C) - Data: 00 00 00 00 00 00 00 80  returns 0x00 (0001ms, 0974ms total)
T0798 009:011 JLINK_ReadMem (0x40023C14, 0x0004 Bytes, ...) -- CPU is running -- CPU_ReadMem(4 bytes @ 0x40023C14) - Data: ED AA FF 0F  returns 0x00 (0001ms, 0975ms total)
T0798 009:012 JLINK_ReadMem (0x40020800, 0x0014 Bytes, ...) -- CPU is running -- CPU_ReadMem(20 bytes @ 0x40020800) - Data: 00 00 00 00 00 00 00 00 00 00 00 00 00 00 00 00 ...  returns 0x00 (0002ms, 0977ms total)
T0798 009:014 JLINK_ReadMem (0x40020814, 0x0004 Bytes, ...) -- CPU is running -- CPU_ReadMem(4 bytes @ 0x40020814) - Data: 00 00 00 00  returns 0x00 (0001ms, 0978ms total)
T0798 009:015 JLINK_ReadMem (0x4002081C, 0x0008 Bytes, ...) -- CPU is running -- CPU_ReadMem(8 bytes @ 0x4002081C) - Data: 00 00 00 00 00 00 00 00  returns 0x00 (0004ms, 0982ms total)
T0798 009:019 JLINK_ReadMem (0x40020824, 0x0004 Bytes, ...) -- CPU is running -- CPU_ReadMem(4 bytes @ 0x40020824) - Data: 00 00 00 00  returns 0x00 (0002ms, 0984ms total)
T0798 009:022 JLINK_ReadMem (0x40000400, 0x0010 Bytes, ...) -- CPU is running -- CPU_ReadMem(16 bytes @ 0x40000400) - Data: 00 00 00 00 00 00 00 00 00 00 00 00 00 00 00 00  returns 0x00 (0002ms, 0986ms total)
T0798 009:024 JLINK_ReadMem (0x40000410, 0x0004 Bytes, ...) -- CPU is running -- CPU_ReadMem(4 bytes @ 0x40000410) - Data: 00 00 00 00  returns 0x00 (0001ms, 0987ms total)
T0798 009:025 JLINK_ReadMem (0x40000418, 0x0014 Bytes, ...) -- CPU is running -- CPU_ReadMem(20 bytes @ 0x40000418) - Data: 00 00 00 00 00 00 00 00 00 00 00 00 00 00 00 00 ...  returns 0x00 (0001ms, 0988ms total)
